! Touchstone file exported from Ansys Full-Wave Spice
! Project: 0000
!  Design: unknown
! Creation time: Tue Jul 21 02:52:19 2026
! Notes: Touchstone(R) file created by SIwave 2026 R1
!      : Touchstone(R) file created on Tue Jul 21 02:52:19 2026

!      : --------------------------------------
!      : Design: Cell_4ZWV3U
!      : Path:   
!      : --------------------------------------
!      : 
!      : --------------------------------------
!      : *** SIwave SYZ Simulation Settings ***
!      : --------------------------------------
!      : SI/PI Main
!      : --------------------------------------
!      :  SI Simulation -  Balanced
!      : 
!      : --------------------------------------
!      : SI/PI Advanced
!      : --------------------------------------
!      :  Coupling
!      :   Coplane: On
!      :   Intra-plane: Off
!      :   Split-plane: On
!      :   Cavity field: On
!      :   Trace: On
!      :   Cross-talk threshold: -34dB
!      :   Max. coupled lines: 12
!      : 
!      :  Geometry Processing
!      :   Void area threshold: 2mm^2
!      :   Pad area threshold: 1mm^2
!      :   Planes area threshold: 6.25E-06mm^2
!      :   Vertex snap distance threshold: 0.0025mm
!      : 
!      :  Mesh Refinement
!      :   Auto
!      : 
!      :  AC/DC Merge
!      :   Default
!      : 
!      :  Trace return current distribution: Off
!      :  Include voltage/current source parasitics: No
!      :  Add infinite ground plane: No
!      :  Exclude non-functional pads: Yes
!      : 
!      : --------------------------------------
!      : Temperature
!      : --------------------------------------
!      :  Uniform distribution: 20cel
!      : 
!      : --------------------------------------
!      : Net Processing
!      : --------------------------------------
!      :  Auto select nets
!      : 
!      : --------------------------------------
!      : S-parameter Modeling
!      : --------------------------------------
!      :  State Space Model
!      : 
!      : --------------------------------------
!      : Sweep
!      : --------------------------------------
!      :  Name: frequency_sweep
!      :  AC/DC Merge: Off
!      :  Interpolating Sweep
!      :   Relative error for S: 0.005
!      :  Frequency Point Distribution:
!      :   Linear: 1E+06Hz -> 1.2E+10Hz 601 pts
!      :  Enforce Causality: No
!      :  Enforce Passivity: Yes
!      :  Q3D Regions: Off
!      :  HFSS Regions: Off
!      : 
# HZ S RI R 50
! Modal data exported
! Port[1] = P1
! Port[2] = P2

1.0000000000000000e+06 -8.9115397193201242e-06 -1.1501180019085331e-03 9.9996410868989483e-01 -1.2761151796076594e-03 9.9996410868989483e-01 -1.2761151796076594e-03 -9.0092352199749959e-06 -1.1500909418326252e-03 

2.0998333333333332e+07 -8.8180168994789069e-04 -2.3301836142248955e-02 9.9883180263246607e-01 -2.5817344260528258e-02 9.9883180263246607e-01 -2.5817344260528258e-02 -1.0735023701301436e-03 -2.3283306093158707e-02 

4.0996666666666664e+07 -3.0119052497369079e-03 -4.5046929084384686e-02 9.9678870094687666e-01 -4.9860093926953564e-02 9.9678870094687666e-01 -4.9860093926953564e-02 -3.2273313760919665e-03 -4.4897941622116397e-02 

6.0995000000000000e+07 -6.0730348648646995e-03 -6.6333598450895037e-02 9.9369271467228149e-01 -7.3666511659836231e-02 9.9369271467228149e-01 -7.3666511659836231e-02 -6.3762272946462726e-03 -6.6215205727262819e-02 

8.0993333333333328e+07 -1.0015654087983831e-02 -8.7317443036262446e-02 9.8956218943549823e-01 -9.7117213847012968e-02 9.8956218943549823e-01 -9.7117213847012968e-02 -1.0560337756755217e-02 -8.7220451647204558e-02 

1.0099166666666666e+08 -1.4877910101265598e-02 -1.0797818128068185e-01 9.8447088085633572e-01 -1.2017123457279780e-01 9.8447088085633572e-01 -1.2017123457279780e-01 -1.5753110700048426e-02 -1.0784233362727329e-01 

1.2099000000000000e+08 -2.0646655913878376e-02 -1.2824954486020906e-01 9.7846207062520063e-01 -1.4280360901579575e-01 9.7846207062520063e-01 -1.4280360901579575e-01 -2.1905143224173258e-02 -1.2802589313234886e-01 

1.4098833333333331e+08 -2.7281245250819534e-02 -1.4807436194108378e-01 9.7156770175467955e-01 -1.6497925188546289e-01 9.7156770175467955e-01 -1.6497925188546289e-01 -2.8968765711348064e-02 -1.4772911835996810e-01 

1.6098666666666666e+08 -3.4735050486131465e-02 -1.6740881548294084e-01 9.6382257411882288e-01 -1.8665619259222227e-01 9.6382257411882288e-01 -1.8665619259222227e-01 -3.6900934665281188e-02 -1.6691363047849433e-01 

1.8098500000000000e+08 -4.2962493514854407e-02 -1.8621683801192049e-01 9.5526748377203441e-01 -2.0779229503026508e-01 9.5526748377203441e-01 -2.0779229503026508e-01 -4.5659764074171647e-02 -1.8554105423776826e-01 

2.0098333333333331e+08 -5.1919316011543953e-02 -2.0446608098616109e-01 9.4594789155055503e-01 -2.2834906004897215e-01 9.4594789155055503e-01 -2.2834906004897215e-01 -5.5201472858154965e-02 -2.0357340530582399e-01 

2.2098166666666666e+08 -6.1561217578859212e-02 -2.2212651703064845e-01 9.3591195348389744e-01 -2.4829285353372471e-01 9.3591195348389744e-01 -2.4829285353372471e-01 -6.5479155865305366e-02 -2.2097480032531788e-01 

2.4098000000000000e+08 -7.1842819186990314e-02 -2.3917055947073779e-01 9.2520912094248653e-01 -2.6759488335392939e-01 9.2520912094248653e-01 -2.6759488335392939e-01 -7.6442936832819636e-02 -2.3771303071965960e-01 

2.6097833333333331e+08 -8.2717334253506108e-02 -2.5557368930127200e-01 9.1388937518961222e-01 -2.8623081382709981e-01 9.1388937518961222e-01 -2.8623081382709981e-01 -8.8040796265302354e-02 -2.5376052975219288e-01 

2.8097666666666663e+08 -9.4136779458282652e-02 -2.7131504543170620e-01 9.0200285241373035e-01 -3.0418041270071694e-01 9.0200285241373035e-01 -3.0418041270071694e-01 -1.0021956593217618e-01 -2.6909474625754359e-01 

3.0097500000000000e+08 -1.0605246548411069e-01 -2.8637778168630501e-01 8.8959962879700694e-01 -3.2142733051505956e-01 8.8959962879700694e-01 -3.2142733051505956e-01 -1.1292582296096816e-01 -2.8369810028015152e-01 

3.2097333333333331e+08 -1.1841556949703322e-01 -3.0074917698560627e-01 8.7672952753748568e-01 -3.3795898423228421e-01 8.7672952753748568e-01 -3.3795898423228421e-01 -1.2610658785632933e-01 -2.9755770442284629e-01 

3.4097166666666663e+08 -1.3117767581342074e-01 -3.1442055539866032e-01 8.6344189171013563e-01 -3.5376648444022218e-01 8.6344189171013563e-01 -3.5376648444022218e-01 -1.3970982596938714e-01 -3.1066498831707656e-01 

3.6097000000000000e+08 -1.4429123584216605e-01 -3.2738708405508721e-01 8.4978531749753905e-01 -3.6884455483417794e-01 8.4978531749753905e-01 -3.6884455483417794e-01 -1.5368479230082510e-01 -3.2301530960387548e-01 

3.8096833333333331e+08 -1.5770993693717458e-01 -3.3964750443498903e-01 8.3580736558980750e-01 -3.8319141392483502e-01 8.3580736558980750e-01 -3.8319141392483502e-01 -1.6798226770075581e-01 -3.3460759167271903e-01 

4.0096666666666663e+08 -1.7138898824816595e-01 -3.5120383478529771e-01 8.2155427422172089e-01 -3.9680860833866421e-01 8.2155427422172089e-01 -3.9680860833866421e-01 -1.8255472730372319e-01 -3.4544400024634953e-01 

4.2096500000000000e+08 -1.8528533780011658e-01 -3.6206106612780159e-01 8.0707069403843223e-01 -4.0970080030863570e-01 8.0707069403843223e-01 -4.0970080030863570e-01 -1.9735646987375599e-01 -3.5552965571559497e-01 

4.4096333333333331e+08 -1.9935783489591757e-01 -3.7222686363162105e-01 7.9239945848691673e-01 -4.2187551901871700e-01 7.9239945848691673e-01 -4.2187551901871700e-01 -2.1234372502703369e-01 -3.6487237204616929e-01 

4.6096166666666663e+08 -2.1356734935061575e-01 -3.8171127864709703e-01 7.7758139689943062e-01 -4.3334288795238496e-01 7.7758139689943062e-01 -4.3334288795238496e-01 -2.2747474636009596e-01 -3.7348241245481184e-01 

4.8096000000000000e+08 -2.2787685607371258e-01 -3.9052647329564338e-01 7.6265519221178413e-01 -4.4411534006238196e-01 7.6265519221178413e-01 -4.4411534006238196e-01 -2.4270989268018095e-01 -3.8137225408156711e-01 

5.0095833333333331e+08 -2.4225149098075205e-01 -3.9868645802559777e-01 7.4765728167034740e-01 -4.5420733082845349e-01 7.4765728167034740e-01 -4.5420733082845349e-01 -2.5801169639254151e-01 -3.8855635677835842e-01 

5.2095666666666663e+08 -2.5665858241408501e-01 -4.0620684211049285e-01 7.3262179675234140e-01 -4.6363505703788688e-01 7.3262179675234140e-01 -4.6363505703788688e-01 -2.7334491688914386e-01 -3.9505093387413986e-01 

5.4095500000000000e+08 -2.7106766111420899e-01 -4.1310459710072317e-01 7.1758053750292827e-01 -4.7241618694911003e-01 7.1758053750292827e-01 -4.7241618694911003e-01 -2.8867657681284253e-01 -4.0087372491273965e-01 

5.6095333333333325e+08 -2.8545045113114992e-01 -4.1939783341477593e-01 7.0256297620886721e-01 -4.8056960562601747e-01 7.0256297620886721e-01 -4.8056960562601747e-01 -3.0397597972495000e-01 -4.0604377177321110e-01 

5.8095166666666663e+08 -2.9978084377337100e-01 -4.2510559040733897e-01 6.8759628550615814e-01 -4.8811517775063817e-01 6.8759628550615814e-01 -4.8811517775063817e-01 -3.1921470861832968e-01 -4.1058120034120865e-01 

6.0095000000000000e+08 -3.1403485654367785e-01 -4.3024764031351304e-01 6.7270538642616307e-01 -4.9507352910690716e-01 6.7270538642616307e-01 -4.9507352910690716e-01 -3.3436660563313853e-01 -4.1450701014531188e-01 

6.2094833333333325e+08 -3.2819057898839221e-01 -4.3484430644000793e-01 6.5791301239564093e-01 -5.0146584713152165e-01 6.5791301239564093e-01 -5.0146584713152165e-01 -3.4940773409931880e-01 -4.1784287425458305e-01 

6.4094666666666663e+08 -3.4222810737856463e-01 -4.3891629586876002e-01 6.4323978572663276e-01 -5.0731370037324752e-01 6.4323978572663276e-01 -5.0731370037324752e-01 -3.6431632458762125e-01 -4.2061095139869814e-01 

6.6094500000000000e+08 -3.5612947007938345e-01 -4.4248454678732124e-01 6.2870430362321139e-01 -5.1263887633175098e-01 6.2870430362321139e-01 -5.1263887633175098e-01 -3.7907270705818902e-01 -4.2283371181968415e-01 

6.8094333333333325e+08 -3.6987854543984788e-01 -4.4557009038655970e-01 6.1432323117321419e-01 -5.1746323690660079e-01 6.1432323117321419e-01 -5.1746323690660079e-01 -3.9365923135426506e-01 -4.2453377788295232e-01 

7.0094166666666663e+08 -3.8346097394802142e-01 -4.4819392708505745e-01 6.0011139918179235e-01 -5.2180859054445761e-01 6.0011139918179235e-01 -5.2180859054445761e-01 -4.0806017835964831e-01 -4.2573378000632650e-01 

7.2094000000000000e+08 -3.9686406624276149e-01 -4.5037691668373142e-01 5.8608190502888025e-01 -5.2569658007429765e-01 5.8608190502888025e-01 -5.2569658007429765e-01 -4.2226166405336479e-01 -4.2645622805619088e-01 

7.4093833333333325e+08 -4.1007670847287825e-01 -4.5213968190503384e-01 5.7224621502735684e-01 -5.2914858518921337e-01 5.7224621502735684e-01 -5.2914858518921337e-01 -4.3625153857372762e-01 -4.2672339800046494e-01 

7.6093666666666663e+08 -4.2308926633653376e-01 -4.5350252465526353e-01 5.5861426700059025e-01 -5.3218563851120415e-01 5.5861426700059025e-01 -5.3218563851120415e-01 -4.5001928218261933e-01 -4.2655723333451528e-01 

7.8093500000000000e+08 -4.3589348895443658e-01 -4.5448535426361392e-01 5.4519457201230104e-01 -5.3482835418240837e-01 5.4519457201230104e-01 -5.3482835418240837e-01 -4.6355589983038736e-01 -4.2597926057316721e-01 

8.0093333333333325e+08 -4.4848241359088481e-01 -4.5510762688710948e-01 5.3199431436625910e-01 -5.3709686794154676e-01 5.3199431436625910e-01 -5.3709686794154676e-01 -4.7685381575764124e-01 -4.2501051795883193e-01 

8.2093166666666663e+08 -4.6085027206679802e-01 -4.5538829523597524e-01 5.1901944915656451e-01 -5.3901078767736110e-01 5.1901944915656451e-01 -5.3901078767736110e-01 -4.8990676937453748e-01 -4.2367149642449436e-01 

8.4093000000000000e+08 -4.7299239960200490e-01 -4.5534576774382718e-01 5.0627479679214671e-01 -5.4058915349424197e-01 5.0627479679214671e-01 -5.4058915349424197e-01 -5.0270971343145954e-01 -4.2198209179355528e-01 

8.6092833333333325e+08 -4.8490514659850303e-01 -4.5499787634455258e-01 4.9376413403586228e-01 -5.4185040633789461e-01 4.9376413403586228e-01 -5.4185040633789461e-01 -5.1525871525765132e-01 -4.1996156720256816e-01 

8.8092666666666663e+08 -4.9658579387949486e-01 -4.5436185198316331e-01 4.8149028121977416e-01 -5.4281236432369251e-01 4.8149028121977416e-01 -5.4281236432369251e-01 -5.2755086174440280e-01 -4.1762852469471090e-01 

9.0092500000000000e+08 -5.0803247166219156e-01 -4.5345430706920675e-01 4.6945518538072367e-01 -5.4349220591111824e-01 4.6945518538072367e-01 -5.4349220591111824e-01 -5.3958416850644753e-01 -4.1500088500733712e-01 

9.2092333333333325e+08 -5.1924408254737831e-01 -4.5229122407444988e-01 4.5765999915128613e-01 -5.4390645915569880e-01 4.5765999915128613e-01 -5.4390645915569880e-01 -5.5135749356956154e-01 -4.1209587459044517e-01 

9.4092166666666663e+08 -5.3022022863462404e-01 -4.5088794956064410e-01 4.4610515530715156e-01 -5.4407099629775535e-01 4.4610515530715156e-01 -5.4407099629775535e-01 -5.6287045579562467e-01 -4.0893001896084819e-01 

9.6092000000000000e+08 -5.4096114288487718e-01 -4.4925919293132993e-01 4.3479043693610031e-01 -5.4400103301937675e-01 4.3479043693610031e-01 -5.4400103301937675e-01 -5.7412335815209159e-01 -4.0551914155759750e-01 

9.8091833333333325e+08 -5.5146762471502653e-01 -4.4741902928762312e-01 4.2371504324264536e-01 -5.4371113174087415e-01 4.2371504324264536e-01 -5.4371113174087415e-01 -5.8511711586825310e-01 -4.0187836732149568e-01 

1.0009166666666666e+09 -5.6174097981470617e-01 -4.4538090579197159e-01 4.1287765104685636e-01 -5.4321520838589832e-01 4.1287765104685636e-01 -5.4321520838589832e-01 -5.9585318942316678e-01 -3.9802213030532407e-01 

1.0209149999999999e+09 -5.7178296409036233e-01 -4.4315765101585508e-01 4.0227647206964745e-01 -5.4252654209734530e-01 4.0227647206964745e-01 -5.4252654209734530e-01 -6.0633352230670190e-01 -3.9396418465322780e-01 

1.0409133333333333e+09 -5.8159573164308842e-01 -4.4076148678136928e-01 3.9190930612711838e-01 -5.4165778742269044e-01 3.9190930612711838e-01 -5.4165778742269044e-01 -6.1656048337022851e-01 -3.8971761841097319e-01 

1.0609116666666666e+09 -5.9118178663736198e-01 -4.3820404206274755e-01 3.8177359037592407e-01 -5.4062098855587604e-01 3.8177359037592407e-01 -5.4062098855587604e-01 -6.2653681366245451e-01 -3.8529486960675507e-01 

1.0809100000000000e+09 -6.0054393890895508e-01 -4.3549636855827339e-01 3.7186644477180519e-01 -5.3942759524057693e-01 3.7186644477180519e-01 -5.3942759524057693e-01 -6.3626557750517088e-01 -3.8070774418954223e-01 

1.1009083333333333e+09 -6.0968526313462268e-01 -4.3264895758989430e-01 3.6218471391334500e-01 -5.3808848000049836e-01 3.6218471391334500e-01 -5.3808848000049836e-01 -6.4575011763692014e-01 -3.7596743539637628e-01 

1.1209066666666665e+09 -6.1860906139880156e-01 -4.2967175801381574e-01 3.5272500545092411e-01 -5.3661395639821852e-01 3.5272500545092411e-01 -5.3661395639821852e-01 -6.5499401421048498e-01 -3.7108454419030568e-01 

1.1409050000000000e+09 -6.2731882896127678e-01 -4.2657419488133852e-01 3.4348372524904663e-01 -5.3501379804516036e-01 3.4348372524904663e-01 -5.3501379804516036e-01 -6.6400104738864885e-01 -3.6606910049320607e-01 

1.1609033333333333e+09 -6.3581822302886648e-01 -4.2336518862129863e-01 3.3445710948805102e-01 -5.3329725813654927e-01 3.3445710948805102e-01 -5.3329725813654927e-01 -6.7277516335425247e-01 -3.6093058491140262e-01 

1.1809016666666665e+09 -6.4411103438648298e-01 -4.2005317450711060e-01 3.2564125389122900e-01 -5.3147308931264226e-01 3.2564125389122900e-01 -5.3147308931264226e-01 -6.8132044349327225e-01 -3.5567795074009406e-01 

1.2009000000000000e+09 -6.5220116163921493e-01 -4.1664612228256132e-01 3.1703214026520310e-01 -5.2954956365586880e-01 3.1703214026520310e-01 -5.2954956365586880e-01 -6.8964107653375539e-01 -3.5031964605433502e-01 

1.2208983333333333e+09 -6.6009258793684833e-01 -4.1315155575531348e-01 3.0862566053107465e-01 -5.2753449268597497e-01 3.0862566053107465e-01 -5.2753449268597497e-01 -6.9774133343530031e-01 -3.4486363571223244e-01 

1.2408966666666665e+09 -6.6778935998636535e-01 -4.0957657224586519e-01 3.0041763842329705e-01 -5.2543524721759238e-01 3.0041763842329705e-01 -5.2543524721759238e-01 -7.0562554481515416e-01 -3.3931742314399049e-01 

1.2608950000000000e+09 -6.7529556918726819e-01 -4.0592786178152129e-01 2.9240384902290689e-01 -5.2325877697684942e-01 2.9240384902290689e-01 -5.2325877697684942e-01 -7.1329808073435075e-01 -3.3368807179042903e-01 

1.2808933333333333e+09 -6.8261533472142277e-01 -4.0221172595401222e-01 2.8458003628892548e-01 -5.2101162988098437e-01 2.8458003628892548e-01 -5.2101162988098437e-01 -7.2076333264193893e-01 -3.2798222611507982e-01 

1.3008916666666665e+09 -6.8975278844460708e-01 -3.9843409636849525e-01 2.7694192874161366e-01 -5.1869997090802289e-01 2.7694192874161366e-01 -5.1869997090802289e-01 -7.2802569730747713e-01 -3.2220613210748300e-01 

1.3208900000000000e+09 -6.9671206145878573e-01 -3.9460055260184068e-01 2.6948525344210328e-01 -5.1632960050046406e-01 2.6948525344210328e-01 -5.1632960050046406e-01 -7.3508956257235136e-01 -3.1636565722179177e-01 

1.3408883333333333e+09 -7.0349727218786684e-01 -3.9071633966288433e-01 2.6220574840883792e-01 -5.1390597244840719e-01 2.6220574840883792e-01 -5.1390597244840719e-01 -7.4195929477312006e-01 -3.1046630969519362e-01 

1.3608866666666665e+09 -7.1011251586465274e-01 -3.8678638488424028e-01 2.5509917359699519e-01 -5.1143421122359989e-01 2.5509917359699519e-01 -5.1143421122359989e-01 -7.4863922769415225e-01 -3.0451325720482447e-01 

1.3808850000000000e+09 -7.1656185528486627e-01 -3.8281531424441689e-01 2.4816132056926540e-01 -5.0891912872515155e-01 2.4816132056926540e-01 -5.0891912872515155e-01 -7.5513365288529843e-01 -2.9851134488185022e-01 

1.4008833333333333e+09 -7.2284931273745234e-01 -3.7880746807827148e-01 2.4138802096316889e-01 -5.0636524043283404e-01 2.4138802096316889e-01 -5.0636524043283404e-01 -7.6144681126356906e-01 -2.9246511260287222e-01 

1.4208816666666665e+09 -7.2897886296293124e-01 -3.7476691621461844e-01 2.3477515387112005e-01 -5.0377678093856382e-01 2.3477515387112005e-01 -5.0377678093856382e-01 -7.6758288584677947e-01 -2.8637881160256484e-01 

1.4408800000000000e+09 -7.3495442712018433e-01 -3.7069747244969675e-01 2.2831865222174158e-01 -5.0115771886909244e-01 2.2831865222174158e-01 -5.0115771886909244e-01 -7.7354599552352188e-01 -2.8025642038590698e-01 

1.4608783333333333e+09 -7.4077986758318526e-01 -3.6660270845538279e-01 2.2201450826299440e-01 -4.9851177118199719e-01 2.2201450826299440e-01 -4.9851177118199719e-01 -7.7934018976523234e-01 -2.7410165993865343e-01 

1.4808766666666665e+09 -7.4645898355050799e-01 -3.6248596705332847e-01 2.1585877822769228e-01 -4.9584241684822905e-01 2.1585877822769228e-01 -4.9584241684822905e-01 -7.8496944417131931e-01 -2.6791800827016915e-01 

1.5008750000000000e+09 -7.5199550734859244e-01 -3.5835037491136645e-01 2.0984758625909564e-01 -4.9315290992683802e-01 2.0984758625909564e-01 -4.9315290992683802e-01 -7.9043765679376210e-01 -2.6170871425000769e-01 

1.5208733333333333e+09 -7.5739310140109239e-01 -3.5419885462202849e-01 2.0397712766987167e-01 -4.9044629204271706e-01 2.0397712766987167e-01 -4.9044629204271706e-01 -7.9574864512886645e-01 -2.5547681081044060e-01 

1.5408716666666665e+09 -7.6265535575759746e-01 -3.5003413622677848e-01 1.9824367160290407e-01 -4.8772540427599598e-01 1.9824367160290407e-01 -4.8772540427599598e-01 -8.0090614372420055e-01 -2.4922512750324100e-01 

1.5608700000000000e+09 -7.6778578613347048e-01 -3.4585876818933248e-01 1.9264356315329231e-01 -4.8499289848051541e-01 1.9264356315329231e-01 -4.8499289848051541e-01 -8.0591380233773391e-01 -2.4295630242434715e-01 

1.5808683333333333e+09 -7.7278783243350835e-01 -3.4167512779831122e-01 1.8717322500462241e-01 -4.8225124805160480e-01 1.8717322500462241e-01 -4.8225124805160480e-01 -8.1077518458455056e-01 -2.3667279353496046e-01 

1.6008666666666665e+09 -7.7766485767345794e-01 -3.3748543106424422e-01 1.8182915863666832e-01 -4.7950275815280197e-01 1.8182915863666832e-01 -4.7950275815280197e-01 -8.1549376701413856e-01 -2.3037688940943027e-01 

